
**** 01/26/24 16:29:10 *** PSpice 23.1.0 (29 September 2023) ** ID# 0 ********

 ** Profile: "SCHEMATIC1-FFT"  [ C:\Users\useroot\Documents\GitHub\DOSTI\ExperimentalProjects\Cadence Allegro\LT1167\LT1167_Pspice-PS


 ****     CIRCUIT DESCRIPTION


******************************************************************************




** Creating circuit file "FFT.cir" 
** WARNING: THIS AUTOMATICALLY GENERATED FILE MAY BE OVERWRITTEN BY SUBSEQUENT SIMULATIONS

*Libraries: 
* Profile Libraries :
* Local Libraries :
* From [PSPICE NETLIST] section of C:\Users\useroot\Documents\Cadence\cdssetup\OrCAD_PSpice\23.1.0\PSpice.ini file:
.lib "nom.lib" 

*Analysis directives: 
.TRAN  0 1000ns 0 
.OPTIONS ADVCONV
.PROBE64 V(alias(*)) I(alias(*)) W(alias(*)) D(alias(*)) NOISE(alias(*)) 
.INC "..\SCHEMATIC1.net" 



**** INCLUDING SCHEMATIC1.net ****
* source LT1167_PSPICE
X_U1         N00723 N00772 N00757 0 N00234 N00220 VCC N00729 LT1167/LT
C_C5         0 VCC  0.1uF  TC=0,0 
X_R4         N00220 PRESSURE awbresistor PARAMS: RES=1K ESL=100M RESL=100
+  CS=100U RTMPL=100M RTMPQ=100U
X_R8         N00234 N00331 awbresistor PARAMS: RES=1K ESL=100M RESL=100 CS=100U
+  RTMPL=100M RTMPQ=100U
X_R7         N00331 VCC awbresistor PARAMS: RES=1K ESL=100M RESL=100 CS=100U
+  RTMPL=100M RTMPQ=100U
D_D1         0 N00331 BZT55B10 
X_R9         0 N00234 awbresistor PARAMS: RES=1K ESL=100M RESL=100 CS=100U
+  RTMPL=100M RTMPQ=100U
C_C3         0 VCC  1000pF  TC=0,0 
X_R3         N00729 N00723 awbresistor PARAMS: RES=1K ESL=100M RESL=100 CS=100U
+  RTMPL=100M RTMPQ=100U
C_C4         N00772 N00757  0.1uF  TC=0,0 
X_R1         OUT- N00757 awbresistor PARAMS: RES=1K ESL=100M RESL=100 CS=100U
+  RTMPL=100M RTMPQ=100U
X_R2         OUT+ N00772 awbresistor PARAMS: RES=1K ESL=100M RESL=100 CS=100U
+  RTMPL=100M RTMPQ=100U
C_C6         OUT- 0  10pF  TC=0,0 
C_C1         N00757 0  1000pF  TC=0,0 
C_C7         0 OUT+  10pF  TC=0,0 
C_C2         0 N00772  1000pF  TC=0,0 
V_V1         N02688 OUT-  
+EXP 1 5 0.5 0.2 1.750 0.780
V_V2         OUT+ 0 1V
C_C8         OUT- N02688  1000pF  TC=0,0 

**** RESUMING FFT.cir ****
.END

**** 01/26/24 16:29:10 *** PSpice 23.1.0 (29 September 2023) ** ID# 0 ********

 ** Profile: "SCHEMATIC1-FFT"  [ C:\Users\useroot\Documents\GitHub\DOSTI\ExperimentalProjects\Cadence Allegro\LT1167\LT1167_Pspice-PS


 ****     Diode MODEL PARAMETERS


******************************************************************************




               BZT55B10        X_U1.DX         X_U1.XIN1.DX    X_U1.XIN1.DI1   
          IS   10.010000E-21  825.920000E-18  825.920000E-18   95.500000E-12 
         ISR   44.968000E-09                                                 
          BV    9.8716                                                       
         IBV     .079583                                                     
          RS    1.000000E-03                                                 
          TT    5.000000E-09                                                 
         CJO    1.000000E-12                                                 
          VJ     .75                                                         
           M     .3333                                                       
          EG                                                     .21274      
         XTI                    0               0                            


               X_U1.XIN1.DI2   X_U1.XIN1.DRI   X_U1.XIN2.DX    X_U1.XIN2.DI1   
          IS   94.500000E-12  825.920000E-18  825.920000E-18    6.580500E-12 
          EG     .2144                                           .7051       
         XTI                    0               0                            
          KF                    6.414800E-18                                 


               X_U1.XIN2.DI2   X_U1.XIN2.DRI   X_U1.XOUT.DX    X_U1.XOUT.DI1   
          IS    5.399500E-12  825.920000E-18  825.920000E-18   95.500000E-12 
          EG     .7452                                           .20727      
         XTI                    0               0                            
          KF                    6.414800E-18                                 


               X_U1.XOUT.DI2   X_U1.XOUT.DRI   
          IS   94.500000E-12  825.920000E-18 
          EG     .20883                      
         XTI                    0            
          KF                    6.414800E-18 


**** 01/26/24 16:29:10 *** PSpice 23.1.0 (29 September 2023) ** ID# 0 ********

 ** Profile: "SCHEMATIC1-FFT"  [ C:\Users\useroot\Documents\GitHub\DOSTI\ExperimentalProjects\Cadence Allegro\LT1167\LT1167_Pspice-PS


 ****     MOSFET MODEL PARAMETERS


******************************************************************************




               X_U1.XIN1.M1    X_U1.XIN1.M2    X_U1.XIN2.M1    X_U1.XIN2.M2    
               NMOS            NMOS            NMOS            NMOS            
       LEVEL    3               3               3               3            
           L  100.000000E-06  100.000000E-06  100.000000E-06  100.000000E-06 
           W  100.000000E-06  100.000000E-06  100.000000E-06  100.000000E-06 
         VTO    1.00001          .99999         1.00001          .99999      
          KP     .56117          .56117          .56117          .56117      
       GAMMA    0               0               0               0            
         PHI     .6              .6              .6              .6          
      LAMBDA    0               0               0               0            
          IS   10.000000E-15   10.000000E-15   10.000000E-15   10.000000E-15 
          JS    0               0               0               0            
          PB     .8              .8              .8              .8          
        PBSW     .8              .8              .8              .8          
          CJ    0               0               0               0            
        CJSW    0               0               0               0            
        CGSO    0               0               0               0            
        CGDO    0               0               0               0            
        CGBO    0               0               0               0            
         TOX  100.000000E-09  100.000000E-09  100.000000E-09  100.000000E-09 
          XJ    0               0               0               0            
       UCRIT   10.000000E+03   10.000000E+03   10.000000E+03   10.000000E+03 
          KF  762.980000E-30  762.980000E-30  762.980000E-30  762.980000E-30 
      DIOMOD    1               1               1               1            
         VFB    0               0               0               0            
        LETA    0               0               0               0            
        WETA    0               0               0               0            
          U0    0               0               0               0            
        TEMP    0               0               0               0            
         VDD    5               5               5               5            
       XPART    0               0               0               0            


               X_U1.XOUT.M1    X_U1.XOUT.M2    
               NMOS            NMOS            
       LEVEL    3               3            
           L  100.000000E-06  100.000000E-06 
           W  100.000000E-06  100.000000E-06 
         VTO    1.00001          .99999      
          KP     .56121          .56121      
       GAMMA    0               0            
         PHI     .6              .6          
      LAMBDA    0               0            
          IS   10.000000E-15   10.000000E-15 
          JS    0               0            
          PB     .8              .8          
        PBSW     .8              .8          
          CJ    0               0            
        CJSW    0               0            
        CGSO    0               0            
        CGDO    0               0            
        CGBO    0               0            
         TOX  100.000000E-09  100.000000E-09 
          XJ    0               0            
       UCRIT   10.000000E+03   10.000000E+03 
          KF  763.030000E-30  763.030000E-30 
      DIOMOD    1               1            
         VFB    0               0            
        LETA    0               0            
        WETA    0               0            
          U0    0               0            
        TEMP    0               0            
         VDD    5               5            
       XPART    0               0            


**** 01/26/24 16:29:10 *** PSpice 23.1.0 (29 September 2023) ** ID# 0 ********

 ** Profile: "SCHEMATIC1-FFT"  [ C:\Users\useroot\Documents\GitHub\DOSTI\ExperimentalProjects\Cadence Allegro\LT1167\LT1167_Pspice-PS


 ****     INITIAL TRANSIENT SOLUTION       TEMPERATURE =   27.000 DEG C


******************************************************************************



 NODE   VOLTAGE     NODE   VOLTAGE     NODE   VOLTAGE     NODE   VOLTAGE


(  VCC)    -.1623  ( OUT+)    1.0000  ( OUT-)    -.1599  (N00220)    -.2307     

(N00234)    -.0549 (N00331)    -.1084 (N00723)    -.0814 (N00729)    -.0814     

(N00757)    -.1599 (N00772)     .2484 (N02688)     .8401 (X_U1.10)    -.0816    

(X_U1.11)    -.0811                   (X_U1.12)    -.1562                       

(X_U1.13)    -.0680                   (PRESSURE)    -.2307                      

(X_U1.XIN1.6)    -.0812               (X_U1.XIN1.7)    -.0812                   

(X_U1.XIN2.6)    -.0812               (X_U1.XIN2.7)    -.0812                   

(X_U1.XOUT.6)    -.0812               (X_U1.XOUT.7)    -.2312                   

(X_U1.XIN1.10)   -1.1633              (X_U1.XIN1.11)   -1.1616                  

(X_U1.XIN1.12)   -1.1630              (X_U1.XIN1.50)    -.0812                  

(X_U1.XIN1.53)    1.1188              (X_U1.XIN1.54)   -1.2812                  

(X_U1.XIN1.55)     .5088              (X_U1.XIN1.56)    -.0850                  

(X_U1.XIN1.57)    -.6712              (X_U1.XIN1.58)    -.0773                  

(X_U1.XIN1.60)    -.0812              (X_U1.XIN1.99)    -.0812                  

(X_U1.XIN2.10)   -1.1766              (X_U1.XIN2.11)   -1.1751                  

(X_U1.XIN2.12)   -1.1496              (X_U1.XIN2.50)    -.0812                  

(X_U1.XIN2.53)    1.1188              (X_U1.XIN2.54)   -1.2812                  

(X_U1.XIN2.55)     .5088              (X_U1.XIN2.56)    -.0850                  

(X_U1.XIN2.57)    -.6712              (X_U1.XIN2.58)    -.0773                  

(X_U1.XIN2.60)    -.0812              (X_U1.XIN2.99)    -.0812                  

(X_U1.XOUT.10)   -1.1729              (X_U1.XOUT.11)   -1.1530                  

(X_U1.XOUT.12)   -1.1715              (X_U1.XOUT.20)    -.1120                  

(X_U1.XOUT.21)    -.1120              (X_U1.XOUT.31)    -.3694                  

(X_U1.XOUT.32)     .5930              (X_U1.XOUT.33)     .5929                  

(X_U1.XOUT.50)    -.2312              (X_U1.XOUT.53)    1.6688                  

(X_U1.XOUT.54)   -1.8312              (X_U1.XOUT.55)    1.0197                  

(X_U1.XOUT.56)     .3757              (X_U1.XOUT.57)   -1.1820                  

(X_U1.XOUT.58)    -.5380              (X_U1.XOUT.60)    -.0812                  

(X_U1.XOUT.90)    0.0000              (X_U1.XOUT.91)-276.0E-06                  

(X_U1.XOUT.92)-276.0E-06              (X_U1.XOUT.99)    -.0812                  

(X_U1.XIN1.101)     .8983             (X_U1.XIN1.102)     .8983                 

(X_U1.XIN1.103)     .8983             (X_U1.XIN1.104)     .8983                 

(X_U1.XIN1.605)    0.0000             (X_U1.XIN2.101)     .8983                 

(X_U1.XIN2.102)     .8983             (X_U1.XIN2.103)     .8983                 

(X_U1.XIN2.104)     .8983             (X_U1.XIN2.605)    0.0000                 

(X_U1.XOUT.101)     .8983             (X_U1.XOUT.102)     .8983                 

(X_U1.XOUT.103)     .8983             (X_U1.XOUT.104)     .8983                 

(X_U1.XOUT.111)    -.0680             (X_U1.XOUT.605)    0.0000             




    VOLTAGE SOURCE CURRENTS
    NAME         CURRENT

    V_V1         5.421E-20
    V_V2        -7.516E-04
    X_U1.XIN1.VRu   0.000E+00
    X_U1.XIN1.VC  -1.444E-05
    X_U1.XIN1.VE   1.444E-05
    X_U1.XIN2.VRu   0.000E+00
    X_U1.XIN2.VC  -1.444E-05
    X_U1.XIN2.VE   1.444E-05
    X_U1.XOUT.VRu   0.000E+00
    X_U1.XOUT.VC  -6.562E-05
    X_U1.XOUT.VE   6.562E-05
    X_U1.XOUT.VLIM  -5.696E-16

    TOTAL POWER DISSIPATION   1.05E-03  WATTS



          JOB CONCLUDED

**** 01/26/24 16:29:10 *** PSpice 23.1.0 (29 September 2023) ** ID# 0 ********

 ** Profile: "SCHEMATIC1-FFT"  [ C:\Users\useroot\Documents\GitHub\DOSTI\ExperimentalProjects\Cadence Allegro\LT1167\LT1167_Pspice-PS


 ****     JOB STATISTICS SUMMARY


******************************************************************************



  Total job time (using Solver 1)   =         .05
